Freq (GHz) S11_real  S11_img S21_real  S21_img
    8.30  -0.4331  -0.0813   0.1732  -0.2437
    8.30  -0.4323  -0.0812   0.1740  -0.2435
    8.31  -0.4314  -0.0811   0.1748  -0.2432
    8.31  -0.4305  -0.0810   0.1757  -0.2429
    8.31  -0.4296  -0.0809   0.1765  -0.2426
    8.31  -0.4287  -0.0808   0.1773  -0.2423
    8.32  -0.4278  -0.0807   0.1781  -0.2421
    8.32  -0.4269  -0.0806   0.1790  -0.2418
    8.32  -0.4260  -0.0805   0.1798  -0.2415
    8.32  -0.4251  -0.0804   0.1806  -0.2412
    8.33  -0.4242  -0.0803   0.1814  -0.2409
    8.33  -0.4233  -0.0802   0.1822  -0.2406
    8.33  -0.4225  -0.0801   0.1830  -0.2403
    8.33  -0.4216  -0.0799   0.1838  -0.2400
    8.34  -0.4207  -0.0798   0.1846  -0.2397
    8.34  -0.4198  -0.0797   0.1854  -0.2394
    8.34  -0.4189  -0.0796   0.1862  -0.2391
    8.34  -0.4181  -0.0795   0.1870  -0.2388
    8.35  -0.4172  -0.0793   0.1877  -0.2384
    8.35  -0.4163  -0.0792   0.1885  -0.2381
    8.35  -0.4154  -0.0791   0.1893  -0.2378
    8.35  -0.4146  -0.0790   0.1901  -0.2375
    8.36  -0.4137  -0.0788   0.1908  -0.2372
    8.36  -0.4128  -0.0787   0.1916  -0.2368
    8.36  -0.4120  -0.0786   0.1924  -0.2365
    8.36  -0.4111  -0.0784   0.1931  -0.2362
    8.37  -0.4103  -0.0783   0.1939  -0.2359
    8.37  -0.4094  -0.0782   0.1946  -0.2355
    8.37  -0.4085  -0.0780   0.1954  -0.2352
    8.37  -0.4077  -0.0779   0.1961  -0.2349
    8.38  -0.4068  -0.0777   0.1968  -0.2345
    8.38  -0.4060  -0.0776   0.1976  -0.2342
    8.38  -0.4051  -0.0774   0.1983  -0.2338
    8.38  -0.4043  -0.0773   0.1990  -0.2335
    8.39  -0.4035  -0.0771   0.1997  -0.2332
    8.39  -0.4026  -0.0770   0.2005  -0.2328
    8.39  -0.4018  -0.0768   0.2012  -0.2325
    8.39  -0.4010  -0.0767   0.2019  -0.2321
    8.40  -0.4001  -0.0765   0.2026  -0.2318
    8.40  -0.3993  -0.0764   0.2033  -0.2314
    8.40  -0.3985  -0.0762   0.2040  -0.2311
    8.41  -0.3976  -0.0761   0.2047  -0.2307
    8.41  -0.3968  -0.0759   0.2053  -0.2304
    8.41  -0.3960  -0.0757   0.2060  -0.2300
    8.41  -0.3952  -0.0756   0.2067  -0.2297
    8.42  -0.3944  -0.0754   0.2074  -0.2293
    8.42  -0.3936  -0.0752   0.2080  -0.2290
    8.42  -0.3928  -0.0751   0.2087  -0.2286
    8.42  -0.3920  -0.0749   0.2094  -0.2282
    8.43  -0.3912  -0.0747   0.2100  -0.2279
    8.43  -0.3904  -0.0746   0.2107  -0.2275
    8.43  -0.3896  -0.0744   0.2113  -0.2272
    8.43  -0.3888  -0.0742   0.2119  -0.2268
    8.44  -0.3880  -0.0741   0.2126  -0.2265
    8.44  -0.3872  -0.0739   0.2132  -0.2261
    8.44  -0.3865  -0.0737   0.2138  -0.2257
    8.44  -0.3857  -0.0735   0.2144  -0.2254
    8.45  -0.3849  -0.0734   0.2150  -0.2250
    8.45  -0.3842  -0.0732   0.2156  -0.2247
    8.45  -0.3834  -0.0730   0.2162  -0.2243
    8.45  -0.3826  -0.0728   0.2168  -0.2240
    8.46  -0.3819  -0.0727   0.2174  -0.2236
    8.46  -0.3811  -0.0725   0.2180  -0.2232
    8.46  -0.3804  -0.0723   0.2186  -0.2229
    8.46  -0.3796  -0.0721   0.2192  -0.2225
    8.47  -0.3789  -0.0720   0.2197  -0.2222
    8.47  -0.3782  -0.0718   0.2203  -0.2218
    8.47  -0.3774  -0.0716   0.2209  -0.2215
    8.47  -0.3767  -0.0714   0.2214  -0.2211
    8.48  -0.3760  -0.0713   0.2220  -0.2208
    8.48  -0.3753  -0.0711   0.2225  -0.2204
    8.48  -0.3746  -0.0709   0.2231  -0.2201
    8.48  -0.3738  -0.0707   0.2236  -0.2197
    8.49  -0.3731  -0.0705   0.2241  -0.2194
    8.49  -0.3724  -0.0704   0.2246  -0.2190
    8.49  -0.3717  -0.0702   0.2251  -0.2187
    8.49  -0.3710  -0.0700   0.2257  -0.2183
    8.50  -0.3704  -0.0698   0.2262  -0.2180
    8.50  -0.3697  -0.0697   0.2267  -0.2176
    8.50  -0.3690  -0.0695   0.2272  -0.2173
    8.51  -0.3683  -0.0693   0.2276  -0.2170
    8.51  -0.3677  -0.0691   0.2281  -0.2166
    8.51  -0.3670  -0.0689   0.2286  -0.2163
    8.51  -0.3663  -0.0688   0.2291  -0.2159
    8.52  -0.3657  -0.0686   0.2295  -0.2156
    8.52  -0.3650  -0.0684   0.2300  -0.2153
    8.52  -0.3644  -0.0682   0.2304  -0.2150
    8.52  -0.3637  -0.0681   0.2309  -0.2146
    8.53  -0.3631  -0.0679   0.2313  -0.2143
    8.53  -0.3625  -0.0677   0.2318  -0.2140
    8.53  -0.3618  -0.0676   0.2322  -0.2137
    8.53  -0.3612  -0.0674   0.2326  -0.2133
    8.54  -0.3606  -0.0672   0.2330  -0.2130
    8.54  -0.3600  -0.0670   0.2335  -0.2127
    8.54  -0.3594  -0.0669   0.2339  -0.2124
    8.54  -0.3588  -0.0667   0.2343  -0.2121
    8.55  -0.3582  -0.0665   0.2347  -0.2118
    8.55  -0.3576  -0.0664   0.2350  -0.2115
    8.55  -0.3570  -0.0662   0.2354  -0.2112
    8.55  -0.3564  -0.0661   0.2358  -0.2109
    8.56  -0.3559  -0.0659   0.2362  -0.2106
    8.56  -0.3553  -0.0657   0.2365  -0.2103
    8.56  -0.3547  -0.0656   0.2369  -0.2100
    8.56  -0.3542  -0.0654   0.2373  -0.2097
    8.57  -0.3536  -0.0653   0.2376  -0.2094
    8.57  -0.3531  -0.0651   0.2379  -0.2091
    8.57  -0.3525  -0.0650   0.2383  -0.2089
    8.57  -0.3520  -0.0648   0.2386  -0.2086
    8.58  -0.3515  -0.0646   0.2389  -0.2083
    8.58  -0.3509  -0.0645   0.2393  -0.2080
    8.58  -0.3504  -0.0644   0.2396  -0.2078
    8.58  -0.3499  -0.0642   0.2399  -0.2075
    8.59  -0.3494  -0.0641   0.2402  -0.2072
    8.59  -0.3489  -0.0639   0.2405  -0.2070
    8.59  -0.3484  -0.0638   0.2408  -0.2067
    8.59  -0.3479  -0.0636   0.2410  -0.2065
    8.60  -0.3474  -0.0635   0.2413  -0.2062
    8.60  -0.3469  -0.0634   0.2416  -0.2060
    8.60  -0.3465  -0.0632   0.2418  -0.2057
    8.60  -0.3460  -0.0631   0.2421  -0.2055
    8.61  -0.3455  -0.0630   0.2424  -0.2053
    8.61  -0.3451  -0.0628   0.2426  -0.2051
    8.61  -0.3446  -0.0627   0.2428  -0.2048
    8.62  -0.3442  -0.0626   0.2431  -0.2046
    8.62  -0.3437  -0.0625   0.2433  -0.2044
    8.62  -0.3433  -0.0624   0.2435  -0.2042
    8.62  -0.3429  -0.0622   0.2437  -0.2040
    8.63  -0.3424  -0.0621   0.2440  -0.2038
    8.63  -0.3420  -0.0620   0.2442  -0.2036
    8.63  -0.3416  -0.0619   0.2444  -0.2034
    8.63  -0.3412  -0.0618   0.2445  -0.2032
    8.64  -0.3408  -0.0617   0.2447  -0.2030
    8.64  -0.3404  -0.0616   0.2449  -0.2028
    8.64  -0.3400  -0.0615   0.2451  -0.2026
    8.64  -0.3396  -0.0614   0.2453  -0.2024
    8.65  -0.3393  -0.0613   0.2454  -0.2023
    8.65  -0.3389  -0.0612   0.2456  -0.2021
    8.65  -0.3385  -0.0611   0.2457  -0.2019
    8.65  -0.3382  -0.0610   0.2459  -0.2018
    8.66  -0.3378  -0.0609   0.2460  -0.2016
    8.66  -0.3375  -0.0608   0.2461  -0.2015
    8.66  -0.3371  -0.0607   0.2463  -0.2013
    8.66  -0.3368  -0.0607   0.2464  -0.2012
    8.67  -0.3365  -0.0606   0.2465  -0.2010
    8.67  -0.3362  -0.0605   0.2466  -0.2009
    8.67  -0.3358  -0.0604   0.2467  -0.2008
    8.67  -0.3355  -0.0604   0.2468  -0.2007
    8.68  -0.3352  -0.0603   0.2469  -0.2005
    8.68  -0.3349  -0.0602   0.2470  -0.2004
    8.68  -0.3346  -0.0602   0.2471  -0.2003
    8.68  -0.3344  -0.0601   0.2471  -0.2002
    8.69  -0.3341  -0.0601   0.2472  -0.2001
    8.69  -0.3338  -0.0600   0.2473  -0.2000
    8.69  -0.3335  -0.0600   0.2473  -0.1999
    8.69  -0.3333  -0.0599   0.2474  -0.1998
    8.70  -0.3330  -0.0599   0.2474  -0.1997
    8.70  -0.3328  -0.0598   0.2474  -0.1997
    8.70  -0.3325  -0.0598   0.2475  -0.1996
    8.70  -0.3323  -0.0597   0.2475  -0.1995
    8.71  -0.3321  -0.0597   0.2475  -0.1995
    8.71  -0.3319  -0.0597   0.2475  -0.1994
    8.71  -0.3316  -0.0596   0.2475  -0.1993
    8.72  -0.3314  -0.0596   0.2475  -0.1993
    8.72  -0.3312  -0.0596   0.2475  -0.1993
    8.72  -0.3310  -0.0596   0.2475  -0.1992
    8.72  -0.3308  -0.0595   0.2475  -0.1992
    8.73  -0.3306  -0.0595   0.2475  -0.1992
    8.73  -0.3305  -0.0595   0.2474  -0.1991
    8.73  -0.3303  -0.0595   0.2474  -0.1991
    8.73  -0.3301  -0.0595   0.2474  -0.1991
    8.74  -0.3300  -0.0595   0.2473  -0.1991
    8.74  -0.3298  -0.0595   0.2473  -0.1991
    8.74  -0.3297  -0.0595   0.2472  -0.1991
    8.74  -0.3295  -0.0595   0.2471  -0.1991
    8.75  -0.3294  -0.0595   0.2471  -0.1991
    8.75  -0.3292  -0.0595   0.2470  -0.1991
    8.75  -0.3291  -0.0595   0.2469  -0.1991
    8.75  -0.3290  -0.0595   0.2468  -0.1991
    8.76  -0.3289  -0.0596   0.2467  -0.1992
    8.76  -0.3288  -0.0596   0.2466  -0.1992
    8.76  -0.3287  -0.0596   0.2465  -0.1992
    8.76  -0.3286  -0.0596   0.2464  -0.1993
    8.77  -0.3285  -0.0596   0.2463  -0.1993
    8.77  -0.3284  -0.0597   0.2461  -0.1994
    8.77  -0.3283  -0.0597   0.2460  -0.1994
    8.77  -0.3283  -0.0597   0.2459  -0.1995
    8.78  -0.3282  -0.0598   0.2457  -0.1996
    8.78  -0.3281  -0.0598   0.2456  -0.1996
    8.78  -0.3281  -0.0599   0.2454  -0.1997
    8.78  -0.3280  -0.0599   0.2453  -0.1998
    8.79  -0.3280  -0.0600   0.2451  -0.1999
    8.79  -0.3280  -0.0600   0.2449  -0.2000
    8.79  -0.3279  -0.0601   0.2447  -0.2000
    8.79  -0.3279  -0.0601   0.2446  -0.2001
    8.80  -0.3279  -0.0602   0.2444  -0.2002
    8.80  -0.3279  -0.0602   0.2442  -0.2004
    8.80  -0.3279  -0.0603   0.2440  -0.2005
    8.80  -0.3279  -0.0604   0.2438  -0.2006
    8.81  -0.3279  -0.0604   0.2435  -0.2007
    8.81  -0.3279  -0.0605   0.2433  -0.2008
    8.81  -0.3279  -0.0606   0.2431  -0.2010
    8.82  -0.3280  -0.0607   0.2429  -0.2011
    8.82  -0.3280  -0.0607   0.2426  -0.2012
    8.82  -0.3280  -0.0608   0.2424  -0.2014
    8.82  -0.3281  -0.0609   0.2421  -0.2015
    8.83  -0.3281  -0.0610   0.2419  -0.2017
    8.83  -0.3282  -0.0611   0.2416  -0.2018
    8.83  -0.3283  -0.0612   0.2413  -0.2020
    8.83  -0.3283  -0.0612   0.2410  -0.2021
    8.84  -0.3284  -0.0613   0.2408  -0.2023
    8.84  -0.3285  -0.0614   0.2405  -0.2025
    8.84  -0.3286  -0.0615   0.2402  -0.2027
    8.84  -0.3287  -0.0616   0.2399  -0.2028
    8.85  -0.3287  -0.0617   0.2396  -0.2030
    8.85  -0.3288  -0.0618   0.2393  -0.2032
    8.85  -0.3290  -0.0619   0.2389  -0.2034
    8.85  -0.3291  -0.0620   0.2386  -0.2036
    8.86  -0.3292  -0.0622   0.2383  -0.2038
    8.86  -0.3293  -0.0623   0.2380  -0.2040
    8.86  -0.3294  -0.0624   0.2376  -0.2042
    8.86  -0.3296  -0.0625   0.2373  -0.2044
    8.87  -0.3297  -0.0626   0.2369  -0.2046
    8.87  -0.3299  -0.0627   0.2366  -0.2048
    8.87  -0.3300  -0.0628   0.2362  -0.2051
    8.87  -0.3302  -0.0630   0.2358  -0.2053
    8.88  -0.3303  -0.0631   0.2354  -0.2055
    8.88  -0.3305  -0.0632   0.2351  -0.2057
    8.88  -0.3307  -0.0633   0.2347  -0.2060
    8.88  -0.3309  -0.0635   0.2343  -0.2062
    8.89  -0.3310  -0.0636   0.2339  -0.2064
    8.89  -0.3312  -0.0637   0.2335  -0.2067
    8.89  -0.3314  -0.0638   0.2330  -0.2069
    8.89  -0.3316  -0.0640   0.2326  -0.2072
    8.90  -0.3318  -0.0641   0.2322  -0.2074
    8.90  -0.3320  -0.0642   0.2318  -0.2077
    8.90  -0.3323  -0.0644   0.2313  -0.2080
    8.90  -0.3325  -0.0645   0.2309  -0.2082
    8.91  -0.3327  -0.0647   0.2304  -0.2085
    8.91  -0.3329  -0.0648   0.2300  -0.2088
    8.91  -0.3332  -0.0649   0.2295  -0.2090
    8.91  -0.3334  -0.0651   0.2291  -0.2093
    8.92  -0.3337  -0.0652   0.2286  -0.2096
    8.92  -0.3339  -0.0654   0.2281  -0.2098
    8.92  -0.3342  -0.0655   0.2276  -0.2101
    8.93  -0.3344  -0.0656   0.2271  -0.2104
    8.93  -0.3347  -0.0658   0.2266  -0.2107
    8.93  -0.3350  -0.0659   0.2261  -0.2110
    8.93  -0.3352  -0.0661   0.2256  -0.2113
    8.94  -0.3355  -0.0662   0.2251  -0.2116
    8.94  -0.3358  -0.0664   0.2246  -0.2119
    8.94  -0.3361  -0.0665   0.2241  -0.2122
    8.94  -0.3364  -0.0667   0.2235  -0.2125
    8.95  -0.3367  -0.0668   0.2230  -0.2128
    8.95  -0.3370  -0.0670   0.2225  -0.2131
    8.95  -0.3373  -0.0671   0.2219  -0.2134
    8.95  -0.3376  -0.0673   0.2214  -0.2137
    8.96  -0.3379  -0.0674   0.2208  -0.2140
    8.96  -0.3382  -0.0676   0.2202  -0.2143
    8.96  -0.3386  -0.0677   0.2197  -0.2146
    8.96  -0.3389  -0.0679   0.2191  -0.2149
    8.97  -0.3392  -0.0680   0.2185  -0.2152
    8.97  -0.3396  -0.0682   0.2179  -0.2155
    8.97  -0.3399  -0.0683   0.2173  -0.2159
    8.97  -0.3403  -0.0685   0.2167  -0.2162
    8.98  -0.3406  -0.0686   0.2161  -0.2165
    8.98  -0.3410  -0.0688   0.2155  -0.2168
    8.98  -0.3413  -0.0690   0.2149  -0.2171
    8.98  -0.3417  -0.0691   0.2143  -0.2175
    8.99  -0.3420  -0.0693   0.2136  -0.2178
    8.99  -0.3424  -0.0694   0.2130  -0.2181
    8.99  -0.3428  -0.0696   0.2124  -0.2184
    8.99  -0.3432  -0.0697   0.2117  -0.2188
    9.00  -0.3435  -0.0699   0.2111  -0.2191
    9.00  -0.3439  -0.0700   0.2104  -0.2194
    9.00  -0.3443  -0.0702   0.2098  -0.2197
    9.00  -0.3447  -0.0703   0.2091  -0.2201
    9.01  -0.3451  -0.0705   0.2084  -0.2204
    9.01  -0.3455  -0.0706   0.2078  -0.2207
    9.01  -0.3459  -0.0708   0.2071  -0.2211
    9.01  -0.3463  -0.0709   0.2064  -0.2214
    9.02  -0.3467  -0.0710   0.2057  -0.2217
    9.02  -0.3471  -0.0712   0.2050  -0.2220
    9.02  -0.3475  -0.0713   0.2043  -0.2224
    9.03  -0.3479  -0.0715   0.2036  -0.2227
    9.03  -0.3484  -0.0716   0.2029  -0.2230
    9.03  -0.3488  -0.0718   0.2022  -0.2234
    9.03  -0.3492  -0.0719   0.2015  -0.2237
    9.04  -0.3496  -0.0721   0.2007  -0.2240
    9.04  -0.3501  -0.0722   0.2000  -0.2244
    9.04  -0.3505  -0.0723   0.1993  -0.2247
    9.04  -0.3509  -0.0725   0.1985  -0.2250
    9.05  -0.3514  -0.0726   0.1978  -0.2253
    9.05  -0.3518  -0.0728   0.1970  -0.2257
    9.05  -0.3523  -0.0729   0.1963  -0.2260
    9.05  -0.3527  -0.0730   0.1955  -0.2263
    9.06  -0.3532  -0.0732   0.1947  -0.2266
    9.06  -0.3536  -0.0733   0.1940  -0.2270
    9.06  -0.3541  -0.0734   0.1932  -0.2273
    9.06  -0.3545  -0.0736   0.1924  -0.2276
    9.07  -0.3550  -0.0737   0.1916  -0.2279
    9.07  -0.3554  -0.0738   0.1908  -0.2283
    9.07  -0.3559  -0.0739   0.1900  -0.2286
    9.07  -0.3564  -0.0741   0.1892  -0.2289
    9.08  -0.3568  -0.0742   0.1884  -0.2292
    9.08  -0.3573  -0.0743   0.1876  -0.2295
    9.08  -0.3578  -0.0744   0.1868  -0.2298
    9.08  -0.3582  -0.0746   0.1860  -0.2302
    9.09  -0.3587  -0.0747   0.1852  -0.2305
    9.09  -0.3592  -0.0748   0.1844  -0.2308
    9.09  -0.3597  -0.0749   0.1835  -0.2311
    9.09  -0.3601  -0.0750   0.1827  -0.2314
    9.10  -0.3606  -0.0752   0.1819  -0.2317
    9.10  -0.3611  -0.0753   0.1810  -0.2320
    9.10  -0.3616  -0.0754   0.1802  -0.2323
    9.10  -0.3621  -0.0755   0.1793  -0.2326
    9.11  -0.3626  -0.0756   0.1785  -0.2329
    9.11  -0.3630  -0.0757   0.1776  -0.2332
    9.11  -0.3635  -0.0758   0.1768  -0.2335
    9.11  -0.3640  -0.0759   0.1759  -0.2338
    9.12  -0.3645  -0.0760   0.1751  -0.2341
    9.12  -0.3650  -0.0761   0.1742  -0.2344
    9.12  -0.3655  -0.0762   0.1733  -0.2347
    9.13  -0.3660  -0.0763   0.1724  -0.2349
    9.13  -0.3665  -0.0764   0.1715  -0.2352
    9.13  -0.3670  -0.0765   0.1707  -0.2355
    9.13  -0.3675  -0.0766   0.1698  -0.2358
    9.14  -0.3680  -0.0767   0.1689  -0.2361
    9.14  -0.3685  -0.0768   0.1680  -0.2363
    9.14  -0.3690  -0.0769   0.1671  -0.2366
    9.14  -0.3695  -0.0770   0.1662  -0.2369
    9.15  -0.3700  -0.0770   0.1653  -0.2371
    9.15  -0.3705  -0.0771   0.1644  -0.2374
    9.15  -0.3710  -0.0772   0.1635  -0.2377
    9.15  -0.3715  -0.0773   0.1626  -0.2379
    9.16  -0.3720  -0.0774   0.1616  -0.2382
    9.16  -0.3725  -0.0775   0.1607  -0.2384
    9.16  -0.3730  -0.0775   0.1598  -0.2387
    9.16  -0.3735  -0.0776   0.1589  -0.2389
    9.17  -0.3740  -0.0777   0.1579  -0.2391
    9.17  -0.3745  -0.0778   0.1570  -0.2394
    9.17  -0.3750  -0.0778   0.1561  -0.2396
    9.17  -0.3755  -0.0779   0.1551  -0.2399
    9.18  -0.3759  -0.0780   0.1542  -0.2401
    9.18  -0.3764  -0.0780   0.1533  -0.2403
    9.18  -0.3769  -0.0781   0.1523  -0.2405
    9.18  -0.3774  -0.0782   0.1514  -0.2408
    9.19  -0.3779  -0.0782   0.1504  -0.2410
    9.19  -0.3784  -0.0783   0.1495  -0.2412
    9.19  -0.3789  -0.0783   0.1485  -0.2414
    9.19  -0.3794  -0.0784   0.1476  -0.2416
    9.20  -0.3799  -0.0784   0.1466  -0.2418
    9.20  -0.3804  -0.0785   0.1456  -0.2420
    9.20  -0.3809  -0.0785   0.1447  -0.2422
    9.20  -0.3814  -0.0786   0.1437  -0.2424
    9.21  -0.3819  -0.0786   0.1427  -0.2426
    9.21  -0.3824  -0.0787   0.1418  -0.2428
    9.21  -0.3829  -0.0787   0.1408  -0.2430
    9.21  -0.3834  -0.0788   0.1398  -0.2432
    9.22  -0.3839  -0.0788   0.1389  -0.2433
    9.22  -0.3844  -0.0789   0.1379  -0.2435
    9.22  -0.3849  -0.0789   0.1369  -0.2437
    9.23  -0.3853  -0.0789   0.1359  -0.2438
    9.23  -0.3858  -0.0790   0.1350  -0.2440
    9.23  -0.3863  -0.0790   0.1340  -0.2442
    9.23  -0.3868  -0.0791   0.1330  -0.2443
    9.24  -0.3873  -0.0791   0.1320  -0.2445
    9.24  -0.3878  -0.0791   0.1310  -0.2446
    9.24  -0.3883  -0.0792   0.1300  -0.2448
    9.24  -0.3887  -0.0792   0.1291  -0.2449
    9.25  -0.3892  -0.0792   0.1281  -0.2450
    9.25  -0.3897  -0.0792   0.1271  -0.2452
    9.25  -0.3902  -0.0793   0.1261  -0.2453
    9.25  -0.3906  -0.0793   0.1251  -0.2454
    9.26  -0.3911  -0.0793   0.1241  -0.2456
    9.26  -0.3916  -0.0793   0.1231  -0.2457
    9.26  -0.3921  -0.0794   0.1221  -0.2458
    9.26  -0.3925  -0.0794   0.1211  -0.2459
    9.27  -0.3930  -0.0794   0.1201  -0.2460
    9.27  -0.3935  -0.0794   0.1191  -0.2461
    9.27  -0.3939  -0.0794   0.1181  -0.2462
    9.27  -0.3944  -0.0794   0.1171  -0.2463
    9.28  -0.3948  -0.0795   0.1161  -0.2464
    9.28  -0.3953  -0.0795   0.1151  -0.2465
    9.28  -0.3958  -0.0795   0.1141  -0.2466
    9.28  -0.3962  -0.0795   0.1131  -0.2467
    9.29  -0.3967  -0.0795   0.1121  -0.2467
    9.29  -0.3971  -0.0795   0.1111  -0.2468
    9.29  -0.3976  -0.0795   0.1101  -0.2469
    9.29  -0.3980  -0.0795   0.1091  -0.2469
    9.30  -0.3985  -0.0795   0.1081  -0.2470
    9.30  -0.3989  -0.0796   0.1071  -0.2471
    9.30  -0.3993  -0.0796   0.1061  -0.2471
    9.30  -0.3998  -0.0796   0.1051  -0.2472
    9.31  -0.4002  -0.0796   0.1041  -0.2472
    9.31  -0.4007  -0.0796   0.1031  -0.2472
    9.31  -0.4011  -0.0796   0.1021  -0.2473
    9.31  -0.4015  -0.0796   0.1011  -0.2473
    9.32  -0.4020  -0.0796   0.1001  -0.2473
    9.32  -0.4024  -0.0796   0.0991  -0.2474
    9.32  -0.4028  -0.0796   0.0981  -0.2474
    9.32  -0.4032  -0.0796   0.0971  -0.2474
    9.33  -0.4037  -0.0796   0.0961  -0.2474
    9.33  -0.4041  -0.0796   0.0951  -0.2474
    9.33  -0.4045  -0.0796   0.0942  -0.2474
    9.34  -0.4049  -0.0796   0.0932  -0.2474
    9.34  -0.4053  -0.0796   0.0922  -0.2474
    9.34  -0.4057  -0.0796   0.0912  -0.2474
    9.34  -0.4061  -0.0796   0.0902  -0.2474
    9.35  -0.4065  -0.0796   0.0892  -0.2474
    9.35  -0.4069  -0.0796   0.0882  -0.2474
    9.35  -0.4074  -0.0796   0.0872  -0.2474
    9.35  -0.4078  -0.0795   0.0862  -0.2473
    9.36  -0.4081  -0.0795   0.0852  -0.2473
    9.36  -0.4085  -0.0795   0.0842  -0.2473
    9.36  -0.4089  -0.0795   0.0832  -0.2472
    9.36  -0.4093  -0.0795   0.0822  -0.2472
    9.37  -0.4097  -0.0795   0.0813  -0.2472
    9.37  -0.4101  -0.0795   0.0803  -0.2471
    9.37  -0.4105  -0.0795   0.0793  -0.2471
    9.37  -0.4109  -0.0795   0.0783  -0.2470
    9.38  -0.4112  -0.0795   0.0773  -0.2469
    9.38  -0.4116  -0.0795   0.0764  -0.2469
    9.38  -0.4120  -0.0795   0.0754  -0.2468
    9.38  -0.4124  -0.0795   0.0744  -0.2467
    9.39  -0.4127  -0.0795   0.0734  -0.2467
    9.39  -0.4131  -0.0794   0.0724  -0.2466
    9.39  -0.4135  -0.0794   0.0715  -0.2465
    9.39  -0.4138  -0.0794   0.0705  -0.2464
    9.40  -0.4142  -0.0794   0.0695  -0.2463
    9.40  -0.4146  -0.0794   0.0686  -0.2463
    9.40  -0.4149  -0.0794   0.0676  -0.2462
    9.40  -0.4153  -0.0794   0.0666  -0.2461
    9.41  -0.4156  -0.0794   0.0657  -0.2460
    9.41  -0.4160  -0.0794   0.0647  -0.2459
    9.41  -0.4163  -0.0794   0.0638  -0.2457
    9.41  -0.4167  -0.0794   0.0628  -0.2456
    9.42  -0.4170  -0.0794   0.0618  -0.2455
    9.42  -0.4173  -0.0794   0.0609  -0.2454
    9.42  -0.4177  -0.0794   0.0599  -0.2453
    9.42  -0.4180  -0.0793   0.0590  -0.2451
    9.43  -0.4184  -0.0793   0.0580  -0.2450
    9.43  -0.4187  -0.0793   0.0571  -0.2449
    9.43  -0.4190  -0.0793   0.0561  -0.2447
